1



                                 *********************************************

                                    NUMERICAL ELECTROMAGNETICS CODE (NEC-2D)

                                 *********************************************




                                     - - - - COMMENTS - - - -


                          a lambda/30 testing feed                                                   
                                                                                                     




                                 - - - STRUCTURE SPECIFICATION - - -

                                     COORDINATES MUST BE INPUT IN
                                     METERS OR BE SCALED TO METERS
                                     BEFORE STRUCTURE INPUT IS ENDED


  WIRE                                                                               NO. OF    FIRST  LAST     TAG
  NO.        X1         Y1         Z1          X2         Y2         Z2      RADIUS   SEG.     SEG.   SEG.     NO.
     1    0.00000   -0.07495    0.00000     0.00000    0.07495    0.00000    0.00100     21        1    21       1

   TOTAL SEGMENTS USED=   21     NO. SEG. IN A SYMMETRIC CELL=   21     SYMMETRY FLAG=  0


         - MULTIPLE WIRE JUNCTIONS -
 JUNCTION    SEGMENTS  (- FOR END 1, + FOR END 2)
  NONE




                                 - - - - SEGMENTATION DATA - - - -

                                        COORDINATES IN METERS

                         I+ AND I- INDICATE THE SEGMENTS BEFORE AND AFTER I


  SEG.   COORDINATES OF SEG. CENTER     SEG.     ORIENTATION ANGLES    WIRE    CONNECTION DATA   TAG
  NO.       X         Y         Z       LENGTH     ALPHA     BETA      RADIUS    I-   I    I+    NO.
     1   0.00000  -0.07138   0.00000   0.00714    0.00000  90.00000   0.00100     0    1    2      1
     2   0.00000  -0.06424   0.00000   0.00714    0.00000  90.00000   0.00100     1    2    3      1
     3   0.00000  -0.05710   0.00000   0.00714    0.00000  90.00000   0.00100     2    3    4      1
     4   0.00000  -0.04997   0.00000   0.00714    0.00000  90.00000   0.00100     3    4    5      1
     5   0.00000  -0.04283   0.00000   0.00714    0.00000  90.00000   0.00100     4    5    6      1
     6   0.00000  -0.03569   0.00000   0.00714    0.00000  90.00000   0.00100     5    6    7      1
     7   0.00000  -0.02855   0.00000   0.00714    0.00000  90.00000   0.00100     6    7    8      1
     8   0.00000  -0.02141   0.00000   0.00714    0.00000  90.00000   0.00100     7    8    9      1
     9   0.00000  -0.01428   0.00000   0.00714    0.00000  90.00000   0.00100     8    9   10      1
    10   0.00000  -0.00714   0.00000   0.00714    0.00000  90.00000   0.00100     9   10   11      1
    11   0.00000   0.00000   0.00000   0.00714    0.00000  90.00000   0.00100    10   11   12      1
    12   0.00000   0.00714   0.00000   0.00714    0.00000  90.00000   0.00100    11   12   13      1
    13   0.00000   0.01428   0.00000   0.00714    0.00000  90.00000   0.00100    12   13   14      1
    14   0.00000   0.02141   0.00000   0.00714    0.00000  90.00000   0.00100    13   14   15      1
    15   0.00000   0.02855   0.00000   0.00714    0.00000  90.00000   0.00100    14   15   16      1
    16   0.00000   0.03569   0.00000   0.00714    0.00000  90.00000   0.00100    15   16   17      1
    17   0.00000   0.04283   0.00000   0.00714    0.00000  90.00000   0.00100    16   17   18      1
    18   0.00000   0.04997   0.00000   0.00714    0.00000  90.00000   0.00100    17   18   19      1
    19   0.00000   0.05710   0.00000   0.00714    0.00000  90.00000   0.00100    18   19   20      1
    20   0.00000   0.06424   0.00000   0.00714    0.00000  90.00000   0.00100    19   20   21      1
    21   0.00000   0.07138   0.00000   0.00714    0.00000  90.00000   0.00100    20   21    0      1






 ***** DATA CARD NO.  1   GN  -1     0     0     0  0.00000E+00  0.00000E+00  0.00000E+00  0.00000E+00  0.00000E+00  0.00000E+00
 ***** DATA CARD NO.  2   EK   0     0     0     0  0.00000E+00  0.00000E+00  0.00000E+00  0.00000E+00  0.00000E+00  0.00000E+00
 ***** DATA CARD NO.  3   EX   0     1    11     0  1.00000E+00  0.00000E+00  0.00000E+00  0.00000E+00  0.00000E+00  0.00000E+00
 ***** DATA CARD NO.  4   FR   0     0     0     0  1.50000E+03  0.00000E+00  0.00000E+00  0.00000E+00  0.00000E+00  0.00000E+00
 ***** DATA CARD NO.  5   RP   0    19     3  1500  0.00000E+00  0.00000E+00  1.00000E+01  4.50000E+01  0.00000E+00  0.00000E+00




                                 - - - - - - FREQUENCY - - - - - -

                                    FREQUENCY= 1.5000E+03 MHZ
                                    WAVELENGTH= 1.9987E-01 METERS




                    APPROXIMATE INTEGRATION EMPLOYED FOR SEGMENTS MORE THAN   1.000 WAVELENGTHS APART

                    THE EXTENDED THIN WIRE KERNEL WILL BE USED



                               - - - STRUCTURE IMPEDANCE LOADING - - -

                                   THIS STRUCTURE IS NOT LOADED



                                  - - - ANTENNA ENVIRONMENT - - -

                                            FREE SPACE



                                - - - MATRIX TIMING - - -

                        FILL=    0.000 SEC.,  FACTOR=    0.000 SEC.



                                          - - - ANTENNA INPUT PARAMETERS - - -

   TAG   SEG.    VOLTAGE (VOLTS)         CURRENT (AMPS)         IMPEDANCE (OHMS)        ADMITTANCE (MHOS)      POWER
   NO.   NO.    REAL        IMAG.       REAL        IMAG.       REAL        IMAG.       REAL        IMAG.     (WATTS)
     1    11 1.00000E+00 0.00000E+00 1.31879E-03-6.68408E-04 6.03295E+02 3.05770E+02 1.31879E-03-6.68408E-04 6.59397E-04



                             - - - CURRENTS AND LOCATION - - -

                                 DISTANCES IN WAVELENGTHS


  SEG.  TAG    COORD. OF SEG. CENTER     SEG.            - - - CURRENT (AMPS) - - -
  NO.   NO.     X        Y        Z      LENGTH     REAL        IMAG.       MAG.        PHASE
     1    1   0.0000  -0.3571   0.0000  0.03571   1.2586E-04 -5.3926E-04  5.5375E-04  -76.863
     2    1   0.0000  -0.3214   0.0000  0.03571   3.0241E-04 -1.1876E-03  1.2255E-03  -75.713
     3    1   0.0000  -0.2857   0.0000  0.03571   4.7133E-04 -1.6902E-03  1.7547E-03  -74.418
     4    1   0.0000  -0.2500   0.0000  0.03571   6.3759E-04 -2.0788E-03  2.1744E-03  -72.949
     5    1   0.0000  -0.2143   0.0000  0.03571   7.9649E-04 -2.3424E-03  2.4741E-03  -71.220
     6    1   0.0000  -0.1786   0.0000  0.03571   9.4267E-04 -2.4697E-03  2.6435E-03  -69.108
     7    1   0.0000  -0.1429   0.0000  0.03571   1.0708E-03 -2.4514E-03  2.6751E-03  -66.404
     8    1   0.0000  -0.1071   0.0000  0.03571   1.1760E-03 -2.2801E-03  2.5655E-03  -62.716
     9    1   0.0000  -0.0714   0.0000  0.03571   1.2543E-03 -1.9461E-03  2.3153E-03  -57.198
    10    1   0.0000  -0.0357   0.0000  0.03571   1.3025E-03 -1.3906E-03  1.9053E-03  -46.874
    11    1   0.0000   0.0000   0.0000  0.03571   1.3188E-03 -6.6841E-04  1.4785E-03  -26.877
    12    1   0.0000   0.0357   0.0000  0.03571   1.3025E-03 -1.3906E-03  1.9053E-03  -46.874
    13    1   0.0000   0.0714   0.0000  0.03571   1.2543E-03 -1.9461E-03  2.3153E-03  -57.198
    14    1   0.0000   0.1071   0.0000  0.03571   1.1760E-03 -2.2801E-03  2.5655E-03  -62.716
    15    1   0.0000   0.1429   0.0000  0.03571   1.0708E-03 -2.4514E-03  2.6751E-03  -66.404
    16    1   0.0000   0.1786   0.0000  0.03571   9.4267E-04 -2.4697E-03  2.6435E-03  -69.108
    17    1   0.0000   0.2143   0.0000  0.03571   7.9649E-04 -2.3424E-03  2.4741E-03  -71.220
    18    1   0.0000   0.2500   0.0000  0.03571   6.3759E-04 -2.0788E-03  2.1744E-03  -72.949
    19    1   0.0000   0.2857   0.0000  0.03571   4.7133E-04 -1.6902E-03  1.7547E-03  -74.418
    20    1   0.0000   0.3214   0.0000  0.03571   3.0241E-04 -1.1876E-03  1.2255E-03  -75.713
    21    1   0.0000   0.3571   0.0000  0.03571   1.2586E-04 -5.3926E-04  5.5375E-04  -76.863



                                        - - - POWER BUDGET - - -

                                           INPUT POWER   = 6.5940E-04 WATTS
                                           RADIATED POWER= 6.5940E-04 WATTS
                                           STRUCTURE LOSS= 0.0000E+00 WATTS
                                           NETWORK LOSS  = 0.0000E+00 WATTS
                                           EFFICIENCY    = 100.00 PERCENT



                                                - - - RADIATION PATTERNS - - -

  - - ANGLES - -           - POWER GAINS -       - - - POLARIZATION - - -    - - - E(THETA) - - -    - - - E(PHI) - - -
  THETA     PHI        VERT.   HOR.    TOTAL      AXIAL     TILT   SENSE     MAGNITUDE    PHASE      MAGNITUDE    PHASE 
 DEGREES  DEGREES       DB      DB      DB        RATIO     DEG.              VOLTS/M    DEGREES      VOLTS/M    DEGREES
    0.00     0.00    -999.99    2.89    2.89    0.00000   -90.00  LINEAR    0.00000E+00     0.00    2.77257E-01  -154.94
   10.00     0.00    -999.99    2.89    2.89    0.00000   -90.00  LINEAR    0.00000E+00     0.00    2.77257E-01  -154.94
   20.00     0.00    -999.99    2.89    2.89    0.00000   -90.00  LINEAR    0.00000E+00     0.00    2.77257E-01  -154.94
   30.00     0.00    -999.99    2.89    2.89    0.00000   -90.00  LINEAR    0.00000E+00     0.00    2.77257E-01  -154.94
   40.00     0.00    -999.99    2.89    2.89    0.00000   -90.00  LINEAR    0.00000E+00     0.00    2.77257E-01  -154.94
   50.00     0.00    -999.99    2.89    2.89    0.00000   -90.00  LINEAR    0.00000E+00     0.00    2.77257E-01  -154.94
   60.00     0.00    -999.99    2.89    2.89    0.00000   -90.00  LINEAR    0.00000E+00     0.00    2.77257E-01  -154.94
   70.00     0.00    -999.99    2.89    2.89    0.00000   -90.00  LINEAR    0.00000E+00     0.00    2.77257E-01  -154.94
   80.00     0.00    -999.99    2.89    2.89    0.00000   -90.00  LINEAR    0.00000E+00     0.00    2.77257E-01  -154.94
   90.00     0.00    -999.99    2.89    2.89    0.00000   -90.00  LINEAR    0.00000E+00     0.00    2.77257E-01  -154.94
  100.00     0.00    -999.99    2.89    2.89    0.00000   -90.00  LINEAR    0.00000E+00     0.00    2.77257E-01  -154.94
  110.00     0.00    -999.99    2.89    2.89    0.00000   -90.00  LINEAR    0.00000E+00     0.00    2.77257E-01  -154.94
  120.00     0.00    -999.99    2.89    2.89    0.00000   -90.00  LINEAR    0.00000E+00     0.00    2.77257E-01  -154.94
  130.00     0.00    -999.99    2.89    2.89    0.00000   -90.00  LINEAR    0.00000E+00     0.00    2.77257E-01  -154.94
  140.00     0.00    -999.99    2.89    2.89    0.00000   -90.00  LINEAR    0.00000E+00     0.00    2.77257E-01  -154.94
  150.00     0.00    -999.99    2.89    2.89    0.00000   -90.00  LINEAR    0.00000E+00     0.00    2.77257E-01  -154.94
  160.00     0.00    -999.99    2.89    2.89    0.00000   -90.00  LINEAR    0.00000E+00     0.00    2.77257E-01  -154.94
  170.00     0.00    -999.99    2.89    2.89    0.00000   -90.00  LINEAR    0.00000E+00     0.00    2.77257E-01  -154.94
  180.00     0.00    -999.99    2.89    2.89    0.00000   -90.00  LINEAR    0.00000E+00     0.00    2.77257E-01  -154.94
    0.00    45.00      -0.12   -0.12    2.89    0.00000    45.00  LINEAR    1.96050E-01  -154.94    1.96050E-01  -154.94
   10.00    45.00      -0.35   -0.22    2.73    0.00000    45.44  LINEAR    1.90965E-01  -154.86    1.93911E-01  -154.86
   20.00    45.00      -1.03   -0.49    2.25    0.00000    46.78  LINEAR    1.76502E-01  -154.62    1.87830E-01  -154.62
   30.00    45.00      -2.17   -0.93    1.50    0.00000    49.11  LINEAR    1.54794E-01  -154.24    1.78741E-01  -154.24
   40.00    45.00      -3.78   -1.47    0.54    0.00000    52.55  LINEAR    1.28666E-01  -153.74    1.67962E-01  -153.74
   50.00    45.00      -5.89   -2.06   -0.55    0.00000    57.27  LINEAR    1.00871E-01  -153.16    1.56928E-01  -153.16
   60.00    45.00      -8.65   -2.63   -1.66    0.00000    63.43  LINEAR    7.34798E-02  -152.56    1.46960E-01  -152.56
   70.00    45.00     -12.42   -3.10   -2.62    0.00000    71.12  LINEAR    4.75799E-02  -152.04    1.39114E-01  -152.04
   80.00    45.00     -18.63   -3.42   -3.29    0.00000    80.15  LINEAR    2.32910E-02  -151.67    1.34127E-01  -151.67
   90.00    45.00    -999.99   -3.53   -3.53    0.00000   -90.00  LINEAR    6.75793E-13    28.46    1.32420E-01  -151.54
  100.00    45.00     -18.63   -3.42   -3.29    0.00000   -80.15  LINEAR    2.32910E-02    28.33    1.34127E-01  -151.67
  110.00    45.00     -12.42   -3.10   -2.62    0.00000   -71.12  LINEAR    4.75799E-02    27.96    1.39114E-01  -152.04
  120.00    45.00      -8.65   -2.63   -1.66    0.00000   -63.43  LINEAR    7.34798E-02    27.44    1.46960E-01  -152.56
  130.00    45.00      -5.89   -2.06   -0.55    0.00000   -57.27  LINEAR    1.00871E-01    26.84    1.56928E-01  -153.16
  140.00    45.00      -3.78   -1.47    0.54    0.00000   -52.55  LINEAR    1.28666E-01    26.26    1.67962E-01  -153.74
  150.00    45.00      -2.17   -0.93    1.50    0.00000   -49.11  LINEAR    1.54794E-01    25.76    1.78741E-01  -154.24
  160.00    45.00      -1.03   -0.49    2.25    0.00000   -46.78  LINEAR    1.76502E-01    25.38    1.87830E-01  -154.62
  170.00    45.00      -0.35   -0.22    2.73    0.00000   -45.44  LINEAR    1.90965E-01    25.14    1.93911E-01  -154.86
  180.00    45.00      -0.12   -0.12    2.89    0.00000   -45.00  LINEAR    1.96050E-01    25.06    1.96050E-01  -154.94
    0.00    90.00       2.89 -999.99    2.89    0.00000     0.00  LINEAR    2.77257E-01  -154.94    1.41496E-12    25.06
   10.00    90.00       2.56 -999.99    2.56    0.00000     0.00  LINEAR    2.67105E-01  -154.78    1.38417E-12    25.22
   20.00    90.00       1.60 -999.99    1.60    0.00000     0.00  LINEAR    2.38971E-01  -154.29    1.29784E-12    25.71
   30.00    90.00       0.00 -999.99    0.00    0.00000     0.00  LINEAR    1.98885E-01  -153.45    1.17201E-12    26.55
   40.00    90.00      -2.20 -999.99   -2.20    0.00000     0.00  LINEAR    1.54297E-01  -152.26    1.02793E-12    27.74
   50.00    90.00      -5.01 -999.99   -5.01    0.00000     0.00  LINEAR    1.11656E-01  -150.74    8.86491E-13    29.26
   60.00    90.00      -8.48 -999.99   -8.48    0.00000     0.00  LINEAR    7.48768E-02  -148.99    7.64255E-13    31.01
   70.00    90.00     -12.90 -999.99  -12.90    0.00000     0.00  LINEAR    4.50348E-02  -147.26    6.71981E-13    32.74
   80.00    90.00     -19.55 -999.99  -19.55    0.00000     0.00  LINEAR    2.09340E-02  -145.94    6.15238E-13    34.06
   90.00    90.00    -999.99 -999.99 -999.99    0.00000     0.00            5.96167E-13    34.56    5.96167E-13    34.56
  100.00    90.00     -19.55 -999.99  -19.55    0.00000     0.00  LINEAR    2.09340E-02    34.06    6.15238E-13    34.06
  110.00    90.00     -12.90 -999.99  -12.90    0.00000     0.00  LINEAR    4.50348E-02    32.74    6.71981E-13    32.74
  120.00    90.00      -8.48 -999.99   -8.48    0.00000     0.00  LINEAR    7.48768E-02    31.01    7.64255E-13    31.01
  130.00    90.00      -5.01 -999.99   -5.01    0.00000     0.00  LINEAR    1.11656E-01    29.26    8.86491E-13    29.26
  140.00    90.00      -2.20 -999.99   -2.20    0.00000     0.00  LINEAR    1.54297E-01    27.74    1.02793E-12    27.74
  150.00    90.00       0.00 -999.99    0.00    0.00000     0.00  LINEAR    1.98885E-01    26.55    1.17201E-12    26.55
  160.00    90.00       1.60 -999.99    1.60    0.00000     0.00  LINEAR    2.38971E-01    25.71    1.29784E-12    25.71
  170.00    90.00       2.56 -999.99    2.56    0.00000     0.00  LINEAR    2.67105E-01    25.22    1.38417E-12    25.22
  180.00    90.00       2.89 -999.99    2.89    0.00000     0.00  LINEAR    2.77257E-01    25.06    1.41496E-12    25.06


                                     - - - - NORMALIZED GAIN - - - -

                                           TOTAL GAIN
                                      NORMALIZATION FACTOR =     2.89 DB

    - - ANGLES - -      GAIN           - - ANGLES - -      GAIN           - - ANGLES - -      GAIN
    THETA     PHI        DB            THETA     PHI        DB            THETA     PHI        DB
   DEGREES  DEGREES                   DEGREES  DEGREES                   DEGREES  DEGREES
      0.00     0.00      0.00            0.00    45.00      0.00            0.00    90.00      0.00
     10.00     0.00      0.00           10.00    45.00     -0.16           10.00    90.00     -0.32
     20.00     0.00      0.00           20.00    45.00     -0.63           20.00    90.00     -1.29
     30.00     0.00      0.00           30.00    45.00     -1.38           30.00    90.00     -2.89
     40.00     0.00      0.00           40.00    45.00     -2.35           40.00    90.00     -5.09
     50.00     0.00      0.00           50.00    45.00     -3.44           50.00    90.00     -7.90
     60.00     0.00      0.00           60.00    45.00     -4.54           60.00    90.00    -11.37
     70.00     0.00      0.00           70.00    45.00     -5.51           70.00    90.00    -15.79
     80.00     0.00      0.00           80.00    45.00     -6.18           80.00    90.00    -22.44
     90.00     0.00      0.00           90.00    45.00     -6.42           90.00    90.00  -1002.88
    100.00     0.00      0.00          100.00    45.00     -6.18          100.00    90.00    -22.44
    110.00     0.00      0.00          110.00    45.00     -5.51          110.00    90.00    -15.79
    120.00     0.00      0.00          120.00    45.00     -4.54          120.00    90.00    -11.37
    130.00     0.00      0.00          130.00    45.00     -3.44          130.00    90.00     -7.90
    140.00     0.00      0.00          140.00    45.00     -2.35          140.00    90.00     -5.09
    150.00     0.00      0.00          150.00    45.00     -1.38          150.00    90.00     -2.89
    160.00     0.00      0.00          160.00    45.00     -0.63          160.00    90.00     -1.29
    170.00     0.00      0.00          170.00    45.00     -0.16          170.00    90.00     -0.32
    180.00     0.00      0.00          180.00    45.00      0.00          180.00    90.00      0.00






 ***** DATA CARD NO.  6   EN   0    19     3  1500  0.00000E+00  0.00000E+00  1.00000E+01  4.50000E+01  0.00000E+00  0.00000E+00

 RUN TIME =     0.000
