1



                                 *********************************************

                                    NUMERICAL ELECTROMAGNETICS CODE (NEC-2D)

                                 *********************************************




                                     - - - - COMMENTS - - - -


                          a lambda/30 testing feed                                                   
                                                                                                     




                                 - - - STRUCTURE SPECIFICATION - - -

                                     COORDINATES MUST BE INPUT IN
                                     METERS OR BE SCALED TO METERS
                                     BEFORE STRUCTURE INPUT IS ENDED


  WIRE                                                                               NO. OF    FIRST  LAST     TAG
  NO.        X1         Y1         Z1          X2         Y2         Z2      RADIUS   SEG.     SEG.   SEG.     NO.
     1   -0.01000    0.00000    0.00000     0.01000    0.00000    0.00000    0.00010     41        1    41       1

   TOTAL SEGMENTS USED=   41     NO. SEG. IN A SYMMETRIC CELL=   41     SYMMETRY FLAG=  0


         - MULTIPLE WIRE JUNCTIONS -
 JUNCTION    SEGMENTS  (- FOR END 1, + FOR END 2)
  NONE




                                 - - - - SEGMENTATION DATA - - - -

                                        COORDINATES IN METERS

                         I+ AND I- INDICATE THE SEGMENTS BEFORE AND AFTER I


  SEG.   COORDINATES OF SEG. CENTER     SEG.     ORIENTATION ANGLES    WIRE    CONNECTION DATA   TAG
  NO.       X         Y         Z       LENGTH     ALPHA     BETA      RADIUS    I-   I    I+    NO.
     1  -0.00976   0.00000   0.00000   0.00049    0.00000   0.00000   0.00010     0    1    2      1
     2  -0.00927   0.00000   0.00000   0.00049    0.00000   0.00000   0.00010     1    2    3      1
     3  -0.00878   0.00000   0.00000   0.00049    0.00000   0.00000   0.00010     2    3    4      1
     4  -0.00829   0.00000   0.00000   0.00049    0.00000   0.00000   0.00010     3    4    5      1
     5  -0.00780   0.00000   0.00000   0.00049    0.00000   0.00000   0.00010     4    5    6      1
     6  -0.00732   0.00000   0.00000   0.00049    0.00000   0.00000   0.00010     5    6    7      1
     7  -0.00683   0.00000   0.00000   0.00049    0.00000   0.00000   0.00010     6    7    8      1
     8  -0.00634   0.00000   0.00000   0.00049    0.00000   0.00000   0.00010     7    8    9      1
     9  -0.00585   0.00000   0.00000   0.00049    0.00000   0.00000   0.00010     8    9   10      1
    10  -0.00537   0.00000   0.00000   0.00049    0.00000   0.00000   0.00010     9   10   11      1
    11  -0.00488   0.00000   0.00000   0.00049    0.00000   0.00000   0.00010    10   11   12      1
    12  -0.00439   0.00000   0.00000   0.00049    0.00000   0.00000   0.00010    11   12   13      1
    13  -0.00390   0.00000   0.00000   0.00049    0.00000   0.00000   0.00010    12   13   14      1
    14  -0.00341   0.00000   0.00000   0.00049    0.00000   0.00000   0.00010    13   14   15      1
    15  -0.00293   0.00000   0.00000   0.00049    0.00000   0.00000   0.00010    14   15   16      1
    16  -0.00244   0.00000   0.00000   0.00049    0.00000   0.00000   0.00010    15   16   17      1
    17  -0.00195   0.00000   0.00000   0.00049    0.00000   0.00000   0.00010    16   17   18      1
    18  -0.00146   0.00000   0.00000   0.00049    0.00000   0.00000   0.00010    17   18   19      1
    19  -0.00098   0.00000   0.00000   0.00049    0.00000   0.00000   0.00010    18   19   20      1
    20  -0.00049   0.00000   0.00000   0.00049    0.00000   0.00000   0.00010    19   20   21      1
    21   0.00000   0.00000   0.00000   0.00049    0.00000   0.00000   0.00010    20   21   22      1
    22   0.00049   0.00000   0.00000   0.00049    0.00000   0.00000   0.00010    21   22   23      1
    23   0.00098   0.00000   0.00000   0.00049    0.00000   0.00000   0.00010    22   23   24      1
    24   0.00146   0.00000   0.00000   0.00049    0.00000   0.00000   0.00010    23   24   25      1
    25   0.00195   0.00000   0.00000   0.00049    0.00000   0.00000   0.00010    24   25   26      1
    26   0.00244   0.00000   0.00000   0.00049    0.00000   0.00000   0.00010    25   26   27      1
    27   0.00293   0.00000   0.00000   0.00049    0.00000   0.00000   0.00010    26   27   28      1
    28   0.00341   0.00000   0.00000   0.00049    0.00000   0.00000   0.00010    27   28   29      1
    29   0.00390   0.00000   0.00000   0.00049    0.00000   0.00000   0.00010    28   29   30      1
    30   0.00439   0.00000   0.00000   0.00049    0.00000   0.00000   0.00010    29   30   31      1
    31   0.00488   0.00000   0.00000   0.00049    0.00000   0.00000   0.00010    30   31   32      1
    32   0.00537   0.00000   0.00000   0.00049    0.00000   0.00000   0.00010    31   32   33      1
    33   0.00585   0.00000   0.00000   0.00049    0.00000   0.00000   0.00010    32   33   34      1
    34   0.00634   0.00000   0.00000   0.00049    0.00000   0.00000   0.00010    33   34   35      1
    35   0.00683   0.00000   0.00000   0.00049    0.00000   0.00000   0.00010    34   35   36      1
    36   0.00732   0.00000   0.00000   0.00049    0.00000   0.00000   0.00010    35   36   37      1
    37   0.00780   0.00000   0.00000   0.00049    0.00000   0.00000   0.00010    36   37   38      1
    38   0.00829   0.00000   0.00000   0.00049    0.00000   0.00000   0.00010    37   38   39      1
    39   0.00878   0.00000   0.00000   0.00049    0.00000   0.00000   0.00010    38   39   40      1
    40   0.00927   0.00000   0.00000   0.00049    0.00000   0.00000   0.00010    39   40   41      1
    41   0.00976   0.00000   0.00000   0.00049    0.00000   0.00000   0.00010    40   41    0      1






 ***** DATA CARD NO.  1   GN  -1     0     0     0  0.00000E+00  0.00000E+00  0.00000E+00  0.00000E+00  0.00000E+00  0.00000E+00
 ***** DATA CARD NO.  2   EK   0     0     0     0  0.00000E+00  0.00000E+00  0.00000E+00  0.00000E+00  0.00000E+00  0.00000E+00
 ***** DATA CARD NO.  3   EX   0     1    21     0  1.00000E+00  0.00000E+00  0.00000E+00  0.00000E+00  0.00000E+00  0.00000E+00
 ***** DATA CARD NO.  4   FR   0     0     0     0  1.50000E+03  0.00000E+00  0.00000E+00  0.00000E+00  0.00000E+00  0.00000E+00
 ***** DATA CARD NO.  5   RP   0    19     3  1500  0.00000E+00  0.00000E+00  1.00000E+01  4.50000E+01  0.00000E+00  0.00000E+00




                                 - - - - - - FREQUENCY - - - - - -

                                    FREQUENCY= 1.5000E+03 MHZ
                                    WAVELENGTH= 1.9987E-01 METERS




                    APPROXIMATE INTEGRATION EMPLOYED FOR SEGMENTS MORE THAN   1.000 WAVELENGTHS APART

                    THE EXTENDED THIN WIRE KERNEL WILL BE USED



                               - - - STRUCTURE IMPEDANCE LOADING - - -

                                   THIS STRUCTURE IS NOT LOADED



                                  - - - ANTENNA ENVIRONMENT - - -

                                            FREE SPACE



                                - - - MATRIX TIMING - - -

                        FILL=    0.000 SEC.,  FACTOR=    0.000 SEC.



                                          - - - ANTENNA INPUT PARAMETERS - - -

   TAG   SEG.    VOLTAGE (VOLTS)         CURRENT (AMPS)         IMPEDANCE (OHMS)        ADMITTANCE (MHOS)      POWER
   NO.   NO.    REAL        IMAG.       REAL        IMAG.       REAL        IMAG.       REAL        IMAG.     (WATTS)
     1    21 1.00000E+00 0.00000E+00 1.08256E-06 7.73636E-04 1.80876E+00-1.29260E+03 1.08256E-06 7.73636E-04 5.41282E-07



                             - - - CURRENTS AND LOCATION - - -

                                 DISTANCES IN WAVELENGTHS


  SEG.  TAG    COORD. OF SEG. CENTER     SEG.            - - - CURRENT (AMPS) - - -
  NO.   NO.     X        Y        Z      LENGTH     REAL        IMAG.       MAG.        PHASE
     1    1  -0.0488   0.0000   0.0000  0.00244   1.1017E-07  3.5616E-05  3.5616E-05   89.823
     2    1  -0.0464   0.0000   0.0000  0.00244   2.3061E-07  7.6498E-05  7.6498E-05   89.827
     3    1  -0.0439   0.0000   0.0000  0.00244   3.2937E-07  1.1220E-04  1.1220E-04   89.832
     4    1  -0.0415   0.0000   0.0000  0.00244   4.1818E-07  1.4634E-04  1.4634E-04   89.836
     5    1  -0.0391   0.0000   0.0000  0.00244   4.9912E-07  1.7954E-04  1.7954E-04   89.841
     6    1  -0.0366   0.0000   0.0000  0.00244   5.7334E-07  2.1216E-04  2.1216E-04   89.845
     7    1  -0.0342   0.0000   0.0000  0.00244   6.4154E-07  2.4441E-04  2.4442E-04   89.850
     8    1  -0.0317   0.0000   0.0000  0.00244   7.0414E-07  2.7646E-04  2.7646E-04   89.854
     9    1  -0.0293   0.0000   0.0000  0.00244   7.6145E-07  3.0840E-04  3.0841E-04   89.859
    10    1  -0.0268   0.0000   0.0000  0.00244   8.1369E-07  3.4037E-04  3.4037E-04   89.863
    11    1  -0.0244   0.0000   0.0000  0.00244   8.6103E-07  3.7245E-04  3.7246E-04   89.868
    12    1  -0.0220   0.0000   0.0000  0.00244   9.0358E-07  4.0477E-04  4.0477E-04   89.872
    13    1  -0.0195   0.0000   0.0000  0.00244   9.4146E-07  4.3744E-04  4.3744E-04   89.877
    14    1  -0.0171   0.0000   0.0000  0.00244   9.7473E-07  4.7062E-04  4.7062E-04   89.881
    15    1  -0.0146   0.0000   0.0000  0.00244   1.0035E-06  5.0452E-04  5.0452E-04   89.886
    16    1  -0.0122   0.0000   0.0000  0.00244   1.0277E-06  5.3942E-04  5.3942E-04   89.891
    17    1  -0.0098   0.0000   0.0000  0.00244   1.0475E-06  5.7576E-04  5.7576E-04   89.896
    18    1  -0.0073   0.0000   0.0000  0.00244   1.0629E-06  6.1431E-04  6.1432E-04   89.901
    19    1  -0.0049   0.0000   0.0000  0.00244   1.0738E-06  6.5650E-04  6.5650E-04   89.906
    20    1  -0.0024   0.0000   0.0000  0.00244   1.0804E-06  7.0906E-04  7.0906E-04   89.913
    21    1   0.0000   0.0000   0.0000  0.00244   1.0826E-06  7.7364E-04  7.7364E-04   89.920
    22    1   0.0024   0.0000   0.0000  0.00244   1.0804E-06  7.0906E-04  7.0906E-04   89.913
    23    1   0.0049   0.0000   0.0000  0.00244   1.0738E-06  6.5650E-04  6.5650E-04   89.906
    24    1   0.0073   0.0000   0.0000  0.00244   1.0629E-06  6.1431E-04  6.1432E-04   89.901
    25    1   0.0098   0.0000   0.0000  0.00244   1.0475E-06  5.7576E-04  5.7576E-04   89.896
    26    1   0.0122   0.0000   0.0000  0.00244   1.0277E-06  5.3942E-04  5.3942E-04   89.891
    27    1   0.0146   0.0000   0.0000  0.00244   1.0035E-06  5.0452E-04  5.0452E-04   89.886
    28    1   0.0171   0.0000   0.0000  0.00244   9.7473E-07  4.7062E-04  4.7062E-04   89.881
    29    1   0.0195   0.0000   0.0000  0.00244   9.4146E-07  4.3744E-04  4.3744E-04   89.877
    30    1   0.0220   0.0000   0.0000  0.00244   9.0358E-07  4.0477E-04  4.0477E-04   89.872
    31    1   0.0244   0.0000   0.0000  0.00244   8.6103E-07  3.7245E-04  3.7246E-04   89.868
    32    1   0.0268   0.0000   0.0000  0.00244   8.1369E-07  3.4037E-04  3.4037E-04   89.863
    33    1   0.0293   0.0000   0.0000  0.00244   7.6145E-07  3.0840E-04  3.0841E-04   89.859
    34    1   0.0317   0.0000   0.0000  0.00244   7.0414E-07  2.7646E-04  2.7646E-04   89.854
    35    1   0.0342   0.0000   0.0000  0.00244   6.4154E-07  2.4441E-04  2.4442E-04   89.850
    36    1   0.0366   0.0000   0.0000  0.00244   5.7334E-07  2.1216E-04  2.1216E-04   89.845
    37    1   0.0391   0.0000   0.0000  0.00244   4.9912E-07  1.7954E-04  1.7954E-04   89.841
    38    1   0.0415   0.0000   0.0000  0.00244   4.1818E-07  1.4634E-04  1.4634E-04   89.836
    39    1   0.0439   0.0000   0.0000  0.00244   3.2937E-07  1.1220E-04  1.1220E-04   89.832
    40    1   0.0464   0.0000   0.0000  0.00244   2.3061E-07  7.6498E-05  7.6498E-05   89.827
    41    1   0.0488   0.0000   0.0000  0.00244   1.1017E-07  3.5616E-05  3.5616E-05   89.823



                                        - - - POWER BUDGET - - -

                                           INPUT POWER   = 5.4128E-07 WATTS
                                           RADIATED POWER= 5.4128E-07 WATTS
                                           STRUCTURE LOSS= 0.0000E+00 WATTS
                                           NETWORK LOSS  = 0.0000E+00 WATTS
                                           EFFICIENCY    = 100.00 PERCENT



                                                - - - RADIATION PATTERNS - - -

  - - ANGLES - -           - POWER GAINS -       - - - POLARIZATION - - -    - - - E(THETA) - - -    - - - E(PHI) - - -
  THETA     PHI        VERT.   HOR.    TOTAL      AXIAL     TILT   SENSE     MAGNITUDE    PHASE      MAGNITUDE    PHASE 
 DEGREES  DEGREES       DB      DB      DB        RATIO     DEG.              VOLTS/M    DEGREES      VOLTS/M    DEGREES
    0.00     0.00       1.78 -999.99    1.78    0.00000     0.00  LINEAR    6.98885E-03    -0.12    0.00000E+00     0.00
   10.00     0.00       1.64 -999.99    1.64    0.00000     0.00  LINEAR    6.88086E-03    -0.12    0.00000E+00     0.00
   20.00     0.00       1.23 -999.99    1.23    0.00000     0.00  LINEAR    6.56067E-03    -0.12    0.00000E+00     0.00
   30.00     0.00       0.51 -999.99    0.51    0.00000     0.00  LINEAR    6.03933E-03    -0.12    0.00000E+00     0.00
   40.00     0.00      -0.57 -999.99   -0.57    0.00000     0.00  LINEAR    5.33450E-03    -0.12    0.00000E+00     0.00
   50.00     0.00      -2.11 -999.99   -2.11    0.00000     0.00  LINEAR    4.46939E-03    -0.12    0.00000E+00     0.00
   60.00     0.00      -4.30 -999.99   -4.30    0.00000     0.00  LINEAR    3.47162E-03    -0.12    0.00000E+00     0.00
   70.00     0.00      -7.61 -999.99   -7.61    0.00000     0.00  LINEAR    2.37197E-03    -0.12    0.00000E+00     0.00
   80.00     0.00     -13.50 -999.99  -13.50    0.00000     0.00  LINEAR    1.20337E-03    -0.12    0.00000E+00     0.00
   90.00     0.00    -999.99 -999.99 -999.99    0.00000     0.00            3.53568E-14   179.88    0.00000E+00     0.00
  100.00     0.00     -13.50 -999.99  -13.50    0.00000     0.00  LINEAR    1.20337E-03   179.88    0.00000E+00     0.00
  110.00     0.00      -7.61 -999.99   -7.61    0.00000     0.00  LINEAR    2.37197E-03   179.88    0.00000E+00     0.00
  120.00     0.00      -4.30 -999.99   -4.30    0.00000     0.00  LINEAR    3.47162E-03   179.88    0.00000E+00     0.00
  130.00     0.00      -2.11 -999.99   -2.11    0.00000     0.00  LINEAR    4.46939E-03   179.88    0.00000E+00     0.00
  140.00     0.00      -0.57 -999.99   -0.57    0.00000     0.00  LINEAR    5.33450E-03   179.88    0.00000E+00     0.00
  150.00     0.00       0.51 -999.99    0.51    0.00000     0.00  LINEAR    6.03933E-03   179.88    0.00000E+00     0.00
  160.00     0.00       1.23 -999.99    1.23    0.00000     0.00  LINEAR    6.56067E-03   179.88    0.00000E+00     0.00
  170.00     0.00       1.64 -999.99    1.64    0.00000     0.00  LINEAR    6.88086E-03   179.88    0.00000E+00     0.00
  180.00     0.00       1.78 -999.99    1.78    0.00000     0.00  LINEAR    6.98885E-03   179.88    0.00000E+00     0.00
    0.00    45.00      -1.23   -1.23    1.78    0.00000   -45.00  LINEAR    4.94186E-03    -0.12    4.94186E-03   179.88
   10.00    45.00      -1.37   -1.24    1.71    0.00000   -45.44  LINEAR    4.86615E-03    -0.12    4.94121E-03   179.88
   20.00    45.00      -1.78   -1.24    1.51    0.00000   -46.78  LINEAR    4.64146E-03    -0.12    4.93934E-03   179.88
   30.00    45.00      -2.49   -1.24    1.19    0.00000   -49.11  LINEAR    4.27511E-03    -0.12    4.93648E-03   179.88
   40.00    45.00      -3.57   -1.25    0.75    0.00000   -52.55  LINEAR    3.77887E-03    -0.12    4.93296E-03   179.88
   50.00    45.00      -5.10   -1.26    0.24    0.00000   -57.27  LINEAR    3.16844E-03    -0.12    4.92922E-03   179.88
   60.00    45.00      -7.28   -1.26   -0.29    0.00000   -63.43  LINEAR    2.46286E-03    -0.12    4.92571E-03   179.88
   70.00    45.00     -10.59   -1.27   -0.79    0.00000   -71.12  LINEAR    1.68372E-03    -0.12    4.92285E-03   179.88
   80.00    45.00     -16.48   -1.27   -1.14    0.00000   -80.15  LINEAR    8.54521E-04    -0.12    4.92099E-03   179.88
   90.00    45.00    -999.99   -1.27   -1.27    0.00000    90.00  LINEAR    2.51105E-14   179.88    4.92034E-03   179.88
  100.00    45.00     -16.48   -1.27   -1.14    0.00000    80.15  LINEAR    8.54521E-04   179.88    4.92099E-03   179.88
  110.00    45.00     -10.59   -1.27   -0.79    0.00000    71.12  LINEAR    1.68372E-03   179.88    4.92285E-03   179.88
  120.00    45.00      -7.28   -1.26   -0.29    0.00000    63.43  LINEAR    2.46286E-03   179.88    4.92571E-03   179.88
  130.00    45.00      -5.10   -1.26    0.24    0.00000    57.27  LINEAR    3.16844E-03   179.88    4.92922E-03   179.88
  140.00    45.00      -3.57   -1.25    0.75    0.00000    52.55  LINEAR    3.77887E-03   179.88    4.93296E-03   179.88
  150.00    45.00      -2.49   -1.24    1.19    0.00000    49.11  LINEAR    4.27511E-03   179.88    4.93648E-03   179.88
  160.00    45.00      -1.78   -1.24    1.51    0.00000    46.78  LINEAR    4.64146E-03   179.88    4.93934E-03   179.88
  170.00    45.00      -1.37   -1.24    1.71    0.00000    45.44  LINEAR    4.86615E-03   179.88    4.94121E-03   179.88
  180.00    45.00      -1.23   -1.23    1.78    0.00000    45.00  LINEAR    4.94186E-03   179.88    4.94186E-03   179.88
    0.00    90.00    -999.99    1.78    1.78    0.00000    90.00  LINEAR    3.56670E-14   179.88    6.98885E-03   179.88
   10.00    90.00    -999.99    1.78    1.78    0.00000    90.00  LINEAR    3.51251E-14   179.88    6.98885E-03   179.88
   20.00    90.00    -999.99    1.78    1.78    0.00000    90.00  LINEAR    3.35160E-14   179.88    6.98885E-03   179.88
   30.00    90.00    -999.99    1.78    1.78    0.00000    90.00  LINEAR    3.08885E-14   179.88    6.98885E-03   179.88
   40.00    90.00    -999.99    1.78    1.78    0.00000    90.00  LINEAR    2.73225E-14   179.88    6.98885E-03   179.88
   50.00    90.00    -999.99    1.78    1.78    0.00000    90.00  LINEAR    2.29263E-14   179.88    6.98885E-03   179.88
   60.00    90.00    -999.99    1.78    1.78    0.00000    90.00  LINEAR    1.78335E-14   179.88    6.98885E-03   179.88
   70.00    90.00    -999.99    1.78    1.78    0.00000    90.00  LINEAR    1.21988E-14   179.88    6.98885E-03   179.88
   80.00    90.00    -999.99    1.78    1.78    0.00000    90.00  LINEAR    6.19351E-15   179.88    6.98885E-03   179.88
   90.00    90.00    -999.99    1.78    1.78    0.00000   -90.00  LINEAR    1.82023E-25    -0.12    6.98885E-03   179.88
  100.00    90.00    -999.99    1.78    1.78    0.00000   -90.00  LINEAR    6.19351E-15    -0.12    6.98885E-03   179.88
  110.00    90.00    -999.99    1.78    1.78    0.00000   -90.00  LINEAR    1.21988E-14    -0.12    6.98885E-03   179.88
  120.00    90.00    -999.99    1.78    1.78    0.00000   -90.00  LINEAR    1.78335E-14    -0.12    6.98885E-03   179.88
  130.00    90.00    -999.99    1.78    1.78    0.00000   -90.00  LINEAR    2.29263E-14    -0.12    6.98885E-03   179.88
  140.00    90.00    -999.99    1.78    1.78    0.00000   -90.00  LINEAR    2.73225E-14    -0.12    6.98885E-03   179.88
  150.00    90.00    -999.99    1.78    1.78    0.00000   -90.00  LINEAR    3.08885E-14    -0.12    6.98885E-03   179.88
  160.00    90.00    -999.99    1.78    1.78    0.00000   -90.00  LINEAR    3.35160E-14    -0.12    6.98885E-03   179.88
  170.00    90.00    -999.99    1.78    1.78    0.00000   -90.00  LINEAR    3.51251E-14    -0.12    6.98885E-03   179.88
  180.00    90.00    -999.99    1.78    1.78    0.00000   -90.00  LINEAR    3.56670E-14    -0.12    6.98885E-03   179.88


                                     - - - - NORMALIZED GAIN - - - -

                                           TOTAL GAIN
                                      NORMALIZATION FACTOR =     1.78 DB

    - - ANGLES - -      GAIN           - - ANGLES - -      GAIN           - - ANGLES - -      GAIN
