1



                                 *********************************************

                                    NUMERICAL ELECTROMAGNETICS CODE (NEC-2D)

                                 *********************************************




                                     - - - - COMMENTS - - - -


                          a lambda/30 testing feed                                                   
                                                                                                     




                                 - - - STRUCTURE SPECIFICATION - - -

                                     COORDINATES MUST BE INPUT IN
                                     METERS OR BE SCALED TO METERS
                                     BEFORE STRUCTURE INPUT IS ENDED


  WIRE                                                                               NO. OF    FIRST  LAST     TAG
  NO.        X1         Y1         Z1          X2         Y2         Z2      RADIUS   SEG.     SEG.   SEG.     NO.
     1    0.00000   -0.01000    0.00000     0.00000    0.01000    0.00000    0.00010      1        1     1       1

   TOTAL SEGMENTS USED=    1     NO. SEG. IN A SYMMETRIC CELL=    1     SYMMETRY FLAG=  0


         - MULTIPLE WIRE JUNCTIONS -
 JUNCTION    SEGMENTS  (- FOR END 1, + FOR END 2)
  NONE




                                 - - - - SEGMENTATION DATA - - - -

                                        COORDINATES IN METERS

                         I+ AND I- INDICATE THE SEGMENTS BEFORE AND AFTER I


  SEG.   COORDINATES OF SEG. CENTER     SEG.     ORIENTATION ANGLES    WIRE    CONNECTION DATA   TAG
  NO.       X         Y         Z       LENGTH     ALPHA     BETA      RADIUS    I-   I    I+    NO.
     1   0.00000   0.00000   0.00000   0.02000    0.00000  90.00000   0.00010     0    1    0      1






 ***** DATA CARD NO.  1   GN  -1     0     0     0  0.00000E+00  0.00000E+00  0.00000E+00  0.00000E+00  0.00000E+00  0.00000E+00
 ***** DATA CARD NO.  2   EK   0     0     0     0  0.00000E+00  0.00000E+00  0.00000E+00  0.00000E+00  0.00000E+00  0.00000E+00
 ***** DATA CARD NO.  3   EX   0     1     1     0  1.00000E+00  0.00000E+00  0.00000E+00  0.00000E+00  0.00000E+00  0.00000E+00
 ***** DATA CARD NO.  4   FR   0     0     0     0  1.50000E+03  0.00000E+00  0.00000E+00  0.00000E+00  0.00000E+00  0.00000E+00
 ***** DATA CARD NO.  5   RP   0    19     3  1500  0.00000E+00  0.00000E+00  1.00000E+01  4.50000E+01  0.00000E+00  0.00000E+00




                                 - - - - - - FREQUENCY - - - - - -

                                    FREQUENCY= 1.5000E+03 MHZ
                                    WAVELENGTH= 1.9987E-01 METERS




                    APPROXIMATE INTEGRATION EMPLOYED FOR SEGMENTS MORE THAN   1.000 WAVELENGTHS APART

                    THE EXTENDED THIN WIRE KERNEL WILL BE USED



                               - - - STRUCTURE IMPEDANCE LOADING - - -

                                   THIS STRUCTURE IS NOT LOADED



                                  - - - ANTENNA ENVIRONMENT - - -

                                            FREE SPACE



                                - - - MATRIX TIMING - - -

                        FILL=    0.000 SEC.,  FACTOR=    0.000 SEC.



                                          - - - ANTENNA INPUT PARAMETERS - - -

   TAG   SEG.    VOLTAGE (VOLTS)         CURRENT (AMPS)         IMPEDANCE (OHMS)        ADMITTANCE (MHOS)      POWER
   NO.   NO.    REAL        IMAG.       REAL        IMAG.       REAL        IMAG.       REAL        IMAG.     (WATTS)
     1     1 1.00000E+00 0.00000E+00 5.45429E-07 3.21591E-04 5.27387E+00-3.10953E+03 5.45429E-07 3.21591E-04 2.72715E-07



                             - - - CURRENTS AND LOCATION - - -

                                 DISTANCES IN WAVELENGTHS


  SEG.  TAG    COORD. OF SEG. CENTER     SEG.            - - - CURRENT (AMPS) - - -
  NO.   NO.     X        Y        Z      LENGTH     REAL        IMAG.       MAG.        PHASE
     1    1   0.0000   0.0000   0.0000  0.10007   5.4543E-07  3.2159E-04  3.2159E-04   89.903



                                        - - - POWER BUDGET - - -

                                           INPUT POWER   = 2.7271E-07 WATTS
                                           RADIATED POWER= 2.7271E-07 WATTS
                                           STRUCTURE LOSS= 0.0000E+00 WATTS
                                           NETWORK LOSS  = 0.0000E+00 WATTS
                                           EFFICIENCY    = 100.00 PERCENT



                                                - - - RADIATION PATTERNS - - -

  - - ANGLES - -           - POWER GAINS -       - - - POLARIZATION - - -    - - - E(THETA) - - -    - - - E(PHI) - - -
  THETA     PHI        VERT.   HOR.    TOTAL      AXIAL     TILT   SENSE     MAGNITUDE    PHASE      MAGNITUDE    PHASE 
 DEGREES  DEGREES       DB      DB      DB        RATIO     DEG.              VOLTS/M    DEGREES      VOLTS/M    DEGREES
    0.00     0.00    -999.99    0.02    0.02    0.00000    90.00  LINEAR    0.00000E+00     0.00    4.05436E-03    -0.10
   10.00     0.00    -999.99    0.02    0.02    0.00000    90.00  LINEAR    0.00000E+00     0.00    4.05436E-03    -0.10
   20.00     0.00    -999.99    0.02    0.02    0.00000    90.00  LINEAR    0.00000E+00     0.00    4.05436E-03    -0.10
   30.00     0.00    -999.99    0.02    0.02    0.00000    90.00  LINEAR    0.00000E+00     0.00    4.05436E-03    -0.10
   40.00     0.00    -999.99    0.02    0.02    0.00000    90.00  LINEAR    0.00000E+00     0.00    4.05436E-03    -0.10
   50.00     0.00    -999.99    0.02    0.02    0.00000    90.00  LINEAR    0.00000E+00     0.00    4.05436E-03    -0.10
   60.00     0.00    -999.99    0.02    0.02    0.00000    90.00  LINEAR    0.00000E+00     0.00    4.05436E-03    -0.10
   70.00     0.00    -999.99    0.02    0.02    0.00000    90.00  LINEAR    0.00000E+00     0.00    4.05436E-03    -0.10
   80.00     0.00    -999.99    0.02    0.02    0.00000    90.00  LINEAR    0.00000E+00     0.00    4.05436E-03    -0.10
   90.00     0.00    -999.99    0.02    0.02    0.00000    90.00  LINEAR    0.00000E+00     0.00    4.05436E-03    -0.10
  100.00     0.00    -999.99    0.02    0.02    0.00000    90.00  LINEAR    0.00000E+00     0.00    4.05436E-03    -0.10
  110.00     0.00    -999.99    0.02    0.02    0.00000    90.00  LINEAR    0.00000E+00     0.00    4.05436E-03    -0.10
  120.00     0.00    -999.99    0.02    0.02    0.00000    90.00  LINEAR    0.00000E+00     0.00    4.05436E-03    -0.10
  130.00     0.00    -999.99    0.02    0.02    0.00000    90.00  LINEAR    0.00000E+00     0.00    4.05436E-03    -0.10
  140.00     0.00    -999.99    0.02    0.02    0.00000    90.00  LINEAR    0.00000E+00     0.00    4.05436E-03    -0.10
  150.00     0.00    -999.99    0.02    0.02    0.00000    90.00  LINEAR    0.00000E+00     0.00    4.05436E-03    -0.10
  160.00     0.00    -999.99    0.02    0.02    0.00000    90.00  LINEAR    0.00000E+00     0.00    4.05436E-03    -0.10
  170.00     0.00    -999.99    0.02    0.02    0.00000    90.00  LINEAR    0.00000E+00     0.00    4.05436E-03    -0.10
  180.00     0.00    -999.99    0.02    0.02    0.00000    90.00  LINEAR    0.00000E+00     0.00    4.05436E-03    -0.10
    0.00    45.00      -2.99   -2.99    0.02    0.00000    45.00  LINEAR    2.86687E-03    -0.10    2.86687E-03    -0.10
   10.00    45.00      -3.12   -2.99   -0.04    0.00000    45.44  LINEAR    2.82289E-03    -0.10    2.86643E-03    -0.10
   20.00    45.00      -3.53   -2.99   -0.24    0.00000    46.78  LINEAR    2.69240E-03    -0.10    2.86520E-03    -0.10
   30.00    45.00      -4.25   -3.00   -0.57    0.00000    49.11  LINEAR    2.47969E-03    -0.10    2.86330E-03    -0.10
   40.00    45.00      -5.32   -3.01   -1.00    0.00000    52.55  LINEAR    2.19163E-03    -0.10    2.86097E-03    -0.10
   50.00    45.00      -6.85   -3.01   -1.51    0.00000    57.27  LINEAR    1.83741E-03    -0.10    2.85850E-03    -0.10
   60.00    45.00      -9.04   -3.02   -2.05    0.00000    63.43  LINEAR    1.42809E-03    -0.10    2.85617E-03    -0.10
   70.00    45.00     -12.34   -3.03   -2.55    0.00000    71.12  LINEAR    9.76220E-04    -0.10    2.85428E-03    -0.10
   80.00    45.00     -18.24   -3.03   -2.90    0.00000    80.15  LINEAR    4.95425E-04    -0.10    2.85304E-03    -0.10
   90.00    45.00    -999.99   -3.03   -3.03    0.00000   -90.00  LINEAR    1.45581E-14   179.90    2.85261E-03    -0.10
  100.00    45.00     -18.24   -3.03   -2.90    0.00000   -80.15  LINEAR    4.95425E-04   179.90    2.85304E-03    -0.10
  110.00    45.00     -12.34   -3.03   -2.55    0.00000   -71.12  LINEAR    9.76220E-04   179.90    2.85428E-03    -0.10
  120.00    45.00      -9.04   -3.02   -2.05    0.00000   -63.43  LINEAR    1.42809E-03   179.90    2.85617E-03    -0.10
  130.00    45.00      -6.85   -3.01   -1.51    0.00000   -57.27  LINEAR    1.83741E-03   179.90    2.85850E-03    -0.10
  140.00    45.00      -5.32   -3.01   -1.00    0.00000   -52.55  LINEAR    2.19163E-03   179.90    2.86097E-03    -0.10
  150.00    45.00      -4.25   -3.00   -0.57    0.00000   -49.11  LINEAR    2.47969E-03   179.90    2.86330E-03    -0.10
  160.00    45.00      -3.53   -2.99   -0.24    0.00000   -46.78  LINEAR    2.69240E-03   179.90    2.86520E-03    -0.10
  170.00    45.00      -3.12   -2.99   -0.04    0.00000   -45.44  LINEAR    2.82289E-03   179.90    2.86643E-03    -0.10
  180.00    45.00      -2.99   -2.99    0.02    0.00000   -45.00  LINEAR    2.86687E-03   179.90    2.86687E-03    -0.10
    0.00    90.00       0.02 -999.99    0.02    0.00000     0.00  LINEAR    4.05436E-03    -0.10    2.06911E-14   179.90
   10.00    90.00      -0.11 -999.99   -0.11    0.00000     0.00  LINEAR    3.99157E-03    -0.10    2.06849E-14   179.90
   20.00    90.00      -0.53 -999.99   -0.53    0.00000     0.00  LINEAR    3.80541E-03    -0.10    2.06670E-14   179.90
   30.00    90.00      -1.25 -999.99   -1.25    0.00000     0.00  LINEAR    3.50244E-03    -0.10    2.06396E-14   179.90
   40.00    90.00      -2.33 -999.99   -2.33    0.00000     0.00  LINEAR    3.09306E-03    -0.10    2.06060E-14   179.90
   50.00    90.00      -3.87 -999.99   -3.87    0.00000     0.00  LINEAR    2.59089E-03    -0.10    2.05704E-14   179.90
   60.00    90.00      -6.06 -999.99   -6.06    0.00000     0.00  LINEAR    2.01208E-03    -0.10    2.05369E-14   179.90
   70.00    90.00      -9.37 -999.99   -9.37    0.00000     0.00  LINEAR    1.37451E-03    -0.10    2.05096E-14   179.90
   80.00    90.00     -15.27 -999.99  -15.27    0.00000     0.00  LINEAR    6.97254E-04    -0.10    2.04919E-14   179.90
   90.00    90.00    -999.99 -999.99 -999.99    0.00000     0.00            2.04857E-14   179.90    2.04857E-14   179.90
  100.00    90.00     -15.27 -999.99  -15.27    0.00000     0.00  LINEAR    6.97254E-04   179.90    2.04919E-14   179.90
  110.00    90.00      -9.37 -999.99   -9.37    0.00000     0.00  LINEAR    1.37451E-03   179.90    2.05096E-14   179.90
  120.00    90.00      -6.06 -999.99   -6.06    0.00000     0.00  LINEAR    2.01208E-03   179.90    2.05369E-14   179.90
  130.00    90.00      -3.87 -999.99   -3.87    0.00000     0.00  LINEAR    2.59089E-03   179.90    2.05704E-14   179.90
  140.00    90.00      -2.33 -999.99   -2.33    0.00000     0.00  LINEAR    3.09306E-03   179.90    2.06060E-14   179.90
  150.00    90.00      -1.25 -999.99   -1.25    0.00000     0.00  LINEAR    3.50244E-03   179.90    2.06396E-14   179.90
  160.00    90.00      -0.53 -999.99   -0.53    0.00000     0.00  LINEAR    3.80541E-03   179.90    2.06670E-14   179.90
  170.00    90.00      -0.11 -999.99   -0.11    0.00000     0.00  LINEAR    3.99157E-03   179.90    2.06849E-14   179.90
  180.00    90.00       0.02 -999.99    0.02    0.00000     0.00  LINEAR    4.05436E-03   179.90    2.06911E-14   179.90


                                     - - - - NORMALIZED GAIN - - - -

                                           TOTAL GAIN
                                      NORMALIZATION FACTOR =     0.02 DB

    - - ANGLES - -      GAIN           - - ANGLES - -      GAIN           - - ANGLES - -      GAIN
    THETA     PHI        DB            THETA     PHI        DB            THETA     PHI        DB
   DEGREES  DEGREES                   DEGREES  DEGREES                   DEGREES  DEGREES
      0.00     0.00      0.00            0.00    45.00      0.00            0.00    90.00      0.00
     10.00     0.00      0.00           10.00    45.00     -0.07           10.00    90.00     -0.14
     20.00     0.00      0.00           20.00    45.00     -0.27           20.00    90.00     -0.55
     30.00     0.00      0.00           30.00    45.00     -0.59           30.00    90.00     -1.27
     40.00     0.00      0.00           40.00    45.00     -1.02           40.00    90.00     -2.35
     50.00     0.00      0.00           50.00    45.00     -1.53           50.00    90.00     -3.89
     60.00     0.00      0.00           60.00    45.00     -2.07           60.00    90.00     -6.09
     70.00     0.00      0.00           70.00    45.00     -2.57           70.00    90.00     -9.40
     80.00     0.00      0.00           80.00    45.00     -2.92           80.00    90.00    -15.29
     90.00     0.00      0.00           90.00    45.00     -3.05           90.00    90.00  -1000.01
    100.00     0.00      0.00          100.00    45.00     -2.92          100.00    90.00    -15.29
    110.00     0.00      0.00          110.00    45.00     -2.57          110.00    90.00     -9.40
    120.00     0.00      0.00          120.00    45.00     -2.07          120.00    90.00     -6.09
    130.00     0.00      0.00          130.00    45.00     -1.53          130.00    90.00     -3.89
    140.00     0.00      0.00          140.00    45.00     -1.02          140.00    90.00     -2.35
    150.00     0.00      0.00          150.00    45.00     -0.59          150.00    90.00     -1.27
    160.00     0.00      0.00          160.00    45.00     -0.27          160.00    90.00     -0.55
    170.00     0.00      0.00          170.00    45.00     -0.07          170.00    90.00     -0.14
    180.00     0.00      0.00          180.00    45.00      0.00          180.00    90.00      0.00






 ***** DATA CARD NO.  6   EN   0    19     3  1500  0.00000E+00  0.00000E+00  1.00000E+01  4.50000E+01  0.00000E+00  0.00000E+00

 RUN TIME =     0.000
